 ****** HSPICE -- O-2018.09-SP2 win64 (Feb 25 2019) ******                      
  Copyright (c) 1986 - 2020 by Synopsys, Inc. All Rights Reserved.              
  This software and the associated documentation are proprietary
  to Synopsys, Inc. This software may only be used in accordance
  with the terms and conditions of a written license agreement with
  Synopsys, Inc. All other use, reproduction, or distribution of
  this software is strictly prohibited.
  Input File: mc - 副本.sp                                                      
  Command line options: C:\synopsys\Hspice_O-2018.09-SP2\WIN64\hspice.com -i mc - 副本.sp -o D:\DeskTOP\深度学习\mc\mc - 副本.lis
  Start time: Thu Oct 29 09:38:59 2020
  lic:  
  lic: FLEXlm: SDK_11.7.3 
  lic: USER:   Administrator        HOSTNAME: any 
  lic: HOSTID: "706655b94fba"       PID:      1860 
  lic: Using FLEXlm license file: 
  lic: D:\DeskTOP\hspice\Synopsys SSS Feature Keygen\synopsys.dat 
  lic: Checkout 1 hspice 
  lic: License/Maintenance for hspice will expire on 31-dec-2027/2019.12 
  lic: NODE LOCKED license on hostid "706655b94fba" 
  lic:   
  **info** Monte Carlo simulation is detected, increase number of measure digits to 7 for Monte Carlo post processing.
  **info** option measform has been reset to 1 to reduce measure file storage and enable advanced Monte Carlo data mining.
1****** HSPICE -- O-2018.09-SP2 win64 (Feb 25 2019) ******                      
 ******  
 *mc

 ****** mos   model parameters tnom=  25.000 temp=  25.000 ******
 Model file: sta_nmos.l
 Model line:            4
 Model Name: nmos  
 BSIM4 Model (Level 54)
    MOBMOD = 0
    BINUNIT = 2
    PARAMCHK = 1
    CAPMOD = 2
    DIOMOD = 1
    RDSMOD = 0
    TRNQSMOD = 0
    ACNQSMOD = 0
    RBODYMOD = 0
    RGATEMOD = 0
    PERMOD = 1
    GEOMOD = 0
    RGEOMOD = 0
    FNOIMOD = 1
    TNOIMOD = 0
    IGCMOD = 1
    IGBMOD = 1
    STIMOD = 1
    VBFWDMOD = 0
    VERSION =    4.5 
    TOXREF =  3e-09 
    TOXE = 2.83e-09 
    TOXP = 2.524e-09 
    TOXM = 2.83e-09 
    DTOX = 3.06e-10 
    EPSROX =    3.9 
    CDSC =      0 
    CDSCB =      0 
    CDSCD =      0 
    CIT = -0.0001643 
    NFACTOR =  1.298 
    XJ = 1.5e-07 
    VSAT = 9.399e+04 
    A0 =  0.255 
    AGS = 0.4187 
    A1 =      0 
    A2 =      1 
    AT = 5.55e+04 
    KETA = -0.03775 
    NSUB =  6e+16 
    NDEP = 2.31e+17 
    NSD =  1e+20 
    NGATE =  3e+20 
    GAMMA1 =      0 
    GAMMA2 =      0 
    VBX =      0 
    VBM =     -3 
    XT = 1.55e-07 
    K1 =  0.262 
    KT1 = -0.3622 
    KT1L =      0 
    KT2 = -0.06205 
    K2 = 0.03629 
    K3 =      0 
    K3B =      0 
    LPE0 =  9e-08 
    LPEB =      0 
    DVTP0 = 5.5e-06 
    DVTP1 =   2.05 
    W0 =      0 
    DVT0 =   15.2 
    DVT1 =  1.815 
    DVT2 =   0.05 
    DVT0W =      0 
    DVT1W =      0 
    DVT2W =      0 
    DROUT =      0 
    DSUB =    0.7 
    VTH0 = 0.2544 
    EU =   1.67 
    UA = -2.289e-10 
    UA1 = 1.881e-09 
    UB = 1.986e-18 
    UB1 = -3.644e-18 
    UC = 1.902e-10 
    UC1 = -1.904e-10 
    U0 = 0.04939 
    UTE =  -1.71 
    VOFF = -0.1165 
    VOFFL =  1e-09 
    MINV =      0 
    FPROUT =    100 
    PDITS =      0 
    PDITSD =      0 
    PDITSL =      0 
    DELTA = 0.0075 
    RDSW =    130 
    RDSWMIN =      0 
    RDWMIN =      0 
    RSWMIN =      0 
    RDW =    100 
    RSW =    100 
    PRWG =      0 
    PRWB =      0 
    PRT =      0 
    ETA0 = -0.03118 
    ETAB = -0.1263 
    PCLM = 0.4411 
    PDIBLC1 =      0 
    PDIBLC2 = 0.0001 
    PDIBLCB =      0 
    PSCBE1 = 9.264e+08 
    PSCBE2 =  1e-20 
    PVAG =   1.35 
    WR =      1 
    DWG =      0 
    DWB =      0 
    XW = 1.5e-08 
    XWREF = 1.5e-08 
    XL = -2e-08 
    XLREF = -2e-08 
    B0 =      0 
    B1 =      0 
    ALPHA0 =      0 
    ALPHA1 =    0.1 
    AGIDL =  9e-08 
    BGIDL = 2.3e+09 
    CGIDL =    0.5 
    PHIN =      0 
    EGIDL =   0.53 
    AIGC = 0.01133 
    BIGC = 0.001474 
    CIGC =      0 
    AIGSD = 0.01005 
    BIGSD = 0.0004517 
    CIGSD = 0.0001 
    AIGBACC = 0.01228 
    BIGBACC = 0.003181 
    CIGBACC = 0.0977 
    AIGBINV =   0.35 
    BIGBINV =   0.03 
    CIGBINV =  0.006 
    NIGC =    2.1 
    NIGBINV =      1 
    NIGBACC =  4.326 
    NTOX =      1 
    EIGBINV =    1.1 
    PIGCD =  3.217 
    POXEDGE =      1 
    XRCRG1 =     12 
    TNOIA =    1.5 
    TNOIB =    3.5 
    NTNOI =      1 
    XRCRG2 =      1 
    BETA0 =    9.5 
    IJTHDFWD =   0.01 
    IJTHSFWD =   0.01 
    IJTHDREV =   0.01 
    IJTHSREV =   0.01 
    XJBVD =      1 
    XJBVS =      1 
    BVD =     10 
    BVS =     10 
    VFB =     -1 
    GBMIN =  1e-12 
    RBDB =     50 
    RBPB =     50 
    RBSB =     50 
    RBPS =     50 
    RBPD =     50 
    CGSL = 5.65e-11 
    CGDL = 5.65e-11 
    CKAPPAS =    0.6 
    CKAPPAD =    0.6 
    CF = 1.29e-10 
    CLC =  1e-07 
    CLE =    0.6 
    DWC =      0 
    DLC = 1.367e-08 
    DLCIG = 2.5e-09 
    DWJ =      0 
    VFBCV =     -1 
    ACDE =    1.2 
    MOIN =   18.5 
    NOFF =   2.24 
    VOFFCV =   -0.1 
    DMCG = 8.5e-08 
    DMCI = 8.5e-08 
    DMDG =      0 
    DMCGT =      0 
    XGW =      0 
    XGL =      0 
    RSHG =    0.1 
    NGCON =      1 
    TCJ = 0.000778 
    TPB =  0.001 
    TCJSW = 0.000357 
    TPBSW = 0.0019 
    TCJSWG = 0.00301 
    TPBSWG = 0.0019 
    SK0 =      0 
    SK1 =      0 
    SK2 =      0 
    SL =  2e-06 
    SW =  2e-06 
    K =      0 
    LCIT = 2.073e-10 
    LVSAT = 0.0005828 
    LA0 = 1.999e-07 
    LAGS = 7.256e-08 
    LKETA = -5.436e-10 
    LKT1 = -4.515e-09 
    LK2 = -9.214e-10 
    LVTH0 = -5.216e-09 
    LUA = 5.989e-19 
    LUA1 = 2.627e-16 
    LUB = 1.382e-26 
    LUB1 = -2.581e-25 
    LUC = -8.293e-19 
    LU0 = -7.02e-10 
    LUTE = 3.237e-08 
    LVOFF = -4.619e-09 
    LETA0 = 1.585e-08 
    LETAB = 2.353e-09 
    LPCLM = 3.417e-08 
    WVTH0 = -1.034e-08 
    WU0 = -1.708e-09 
    PVTH0 = 2.323e-16 
    PU0 = 7.905e-17 
    TNOM =  298.1 
    CGSO = 1.15e-10 
    CGDO = 1.15e-10 
    CGBO =      0 
    XPART =      1 
    RSH =   10.5 
    JSS =  2e-07 
    JSWS = 3.5e-13 
    JSWGS = 1.3e-12 
    PBS =    0.5 
    MJS =   0.25 
    PBSWS =    0.8 
    MJSWS =   0.01 
    CJS = 0.000981 
    CJSWS = 5.5e-11 
    NJS =      1 
    PBSWGS =   0.47 
    MJSWGS =    0.5 
    CJSWGS = 2.73e-10 
    XTIS =      3 
    JSD =  2e-07 
    JSWD = 3.5e-13 
    JSWGD = 1.3e-12 
    PBD =    0.5 
    MJD =   0.25 
    PBSWD =    0.8 
    MJSWD =   0.01 
    CJD = 0.000981 
    CJSWD = 5.5e-11 
    NJD =      1 
    PBSWGD =   0.47 
    MJSWGD =    0.5 
    CJSWGD = 2.73e-10 
    XTID =      3 
    LMLT =      1 
    WMLT =      1 
    LINT = 2.5e-09 
    LL =      0 
    LLC =      0 
    LLN =      1 
    LW =      0 
    LWC =      0 
    LWN =      1 
    LWL =      0 
    LWLC =      0 
    LMIN =      0 
    LMAX =      1 
    WINT =  6e-09 
    WL =      0 
    WLC =      0 
    WLN =      1 
    WW =      0 
    WWC =      0 
    WWN =      1 
    WWL =      0 
    WWLC =      0 
    WMIN =      0 
    WMAX =      1 
    NOIA = 3.293e+41 
    NOIB = 1.012e+25 
    NOIC =   8.75 
    EM = 3.192e+07 
    EF =   0.85 
    AF =      1 
    KF =      0 
    TRS =      0 
    TRD =      0 
    TEMPMOD  =      0 
    LAMBDA   =      0 
    VTL      =  2e+05 m/s
    LC       =  5e-09 
    XN       =      3 
    LLAMBDA  =      0 
    LVTL     =      0 
    LXN      =      0 
    WLAMBDA  =      0 
    WVTL     =      0 
    WXN      =      0 
    PLAMBDA  =      0 
    PVTL     =      0 
    PXN      =      0 
    RNOIA    =  0.577 
    RNOIB    = 0.5164 
    SAREF(SA0) = 6.3e-07 m
    SBREF(SB0) = 6.3e-07 m
    WLOD     = 1.5e-07 m
    KU0      = -3.849e-08 1/m
    KVSAT    =   0.35 
    KVTH0    = 2.5e-09 m
    TKU0     =    0.1 
    LLODKU0  =      1 
    WLODKU0  =      1 
    LLODVTH  =      1 
    WLODVTH  =      1 
    LKU0     = 1.257e-08 
    WKU0     =  1e-07 
    PKU0     =  5e-14 
    LKVTH0   = -2.68e-11 
    WKVTH0   =      0 
    PKVTH0   =      0 
    STK2     =  4e-10 
    LODK2    =    0.5 
    STETA0   =      0 
    LODETA0  =      1 
    LXRCRG1  =      0 
    WXRCRG1  =      0 
    PXRCRG1  =      0 
    LXRCRG2  =      0 
    WXRCRG2  =      0 
    PXRCRG2  =      0 
     *** UCB's BSIM4.4.0 new diode model is activated. ***
    *** UCB's Diode Model Parameters ***
    JTSS         =      0 
    JTSSWS       =      0 
    JTSSWGS      =      0 
    JTSD         =      0 
    JTSSWD       =      0 
    JTSSWGD      =      0 
    NJTS         =     20 
    NJTSSW       =     20 
    NJTSSWG      =     20 
    XTSS         =   0.02 
    XTSSWS       =   0.02 
    XTSSWGS      =   0.02 
    XTSD         =   0.02 
    XTSSWD       =   0.02 
    XTSSWGD      =   0.02 
    TNJTS        =      0 
    TNJTSSW      =      0 
    TNJTSSWG     =      0 
    VFBSDOFF     =      0 
    LVFBSDOFF    =      0 
    WVFBSDOFF    =      0 
    PVFBSDOFF    =      0 
    LINTNOI      =      0 
    VTSS         =     10 
    VTSD         =     10 
    VTSSWS       =     10 
    VTSSWD       =     10 
    VTSSWGS      =     10 
    VTSSWGD      =     10 
    TTDIOMOD     =      1 
     *** UCB's BSIM4.5.0 new model is activated. ***
    UD         =      0 
    UD1        =      0 
    UP         =      0 
    LP         =  1e-08 
    TVOFF      =      0 
    TVFBSDOFF  =      0 
    RBPS0      =     50 
    RBPSL      =      0 
    RBPSW      =      0 
    RBPSNF     =      0 
    RBPD0      =     50 
    RBPDL      =      0 
    RBPDW      =      0 
    RBPDNF     =      0 
    RBPBX0     =    100 
    RBPBXL     =      0 
    RBPBXW     =      0 
    RBPBXNF    =      0 
    RBPBY0     =    100 
    RBPBYL     =      0 
    RBPBYW     =      0 
    RBPBYNF    =      0 
    RBSBX0     =    100 
    RBSBY0     =    100 
    RBDBX0     =    100 
    RBDBY0     =    100 
    RBSDBXL    =      0 
    RBSDBXW    =      0 
    RBSDBXNF   =      0 
    RBSDBYL    =      0 
    RBSDBYW    =      0 
    RBSDBYNF   =      0 
    LUD        =      0 
    LUD1       =      0 
    LUP        =      0 
    LLP        =      0 
    LTVOFF     =      0 
    LTVFBSDOFF =      0 
    WUD        =      0 
    WUD1       =      0 
    WUP        =      0 
    WLP        =      0 
    WTVOFF     =      0 
    WTVFBSDOFF =      0 
    PUD        =      0 
    PUD1       =      0 
    PUP        =      0 
    PLP        =      0 
    PTVOFF     =      0 
    PTVFBSDOFF =      0 
    WEB        =   -220 
    WEC        =  -3000 
    KVTH0WE    = 0.0049 
    K2WE       = 0.0015 
    KU0WE      = -0.002 
    SCREF      =  1e-06 
    WPEMOD     =      0 
    LKVTH0WE   = -1.2e-10 
    LK2WE      =      0 
    LKU0WE     =      0 
    WKVTH0WE   =      0 
    WK2WE      =      0 
    WKU0WE     =      0 
    PKVTH0WE   =      0 
    PK2WE      =      0 
    PKU0WE     =      0 
  **warning** (nmos:m1 (mc - 副本.sp:6)) Warning: Eta0 * Muleta0 + Deleta0 = -0.0149188 is negative in BSIM4 model with w=1e-06 l=1e-06.
*** info *** index=1 is a nominal sample in Monte Carlo.
*** info *** The MCG Random Number Generator and .Option Use_Agauss_Format = Yes are set as defaults starting with HSPICE L-2016.06 to address the needs of advanced technology nodes with large samples and/or large circuits, particularly for distributed processing.
*** Should you want backward compatibility, please use the following options:
For traditional Gaussian style variations, use .Option Random_Generator = 3LC;
For Variation Block style variations, use .Option Random_Generator = MOA.
  
      

Element variations(Local):   element              parameter

MONTE CARLO DEFINITIONS


Option sampling_method was set, variation block and agauss format variation are in effect.

Random number generator is MCG            , and seed =      1, stream =   1
 **info** set option symb=1 internally to help for convergence.
 *****************************************************************
 ******  option summary
 ******
 runlvl  = 3         bypass  = 2.0000    
 ******
 *mc

 ****** dc transfer curves tnom=  25.000 temp=  25.000 ******
 
   *** monte carlo  index = 1 ***
x

 volt         param      param     
             i_linear   i_sat      
    0.         50.7286p   86.1188p 
   50.00000m  263.2834p  440.2865p 
  100.00000m    1.3324n    2.2029n 
  150.00000m    6.4121n   10.4110n 
  200.00000m   28.3361n   44.7822n 
  250.00000m  111.6334n  170.9429n 
  300.00000m  385.6209n  570.7653n 
  350.00000m    1.1186u    1.6051u 
  400.00000m    2.5488u    3.6799u 
  450.00000m    4.5452u    6.9880u 
  500.00000m    6.8019u   11.4817u 
  550.00000m    9.1219u   17.0200u 
  600.00000m   11.4144u   23.4660u 
  650.00000m   13.6412u   30.7081u 
  700.00000m   15.7865u   38.6535u 
  750.00000m   17.8432u   47.2211u 
  800.00000m   19.8083u   56.3367u 
  850.00000m   21.6804u   65.9311u 
  900.00000m   23.4591u   75.9389u 
  950.00000m   25.1451u   86.2989u 
    1.00000    26.7396u   96.9531u 
y
 vth0_value= 254.3500m
 u0_param=  49.3900m
 vsat_param=  93.9859k
 
   *** monte carlo  index = 2 ***
x

 volt         param      param     
             i_linear   i_sat      
    0.         53.4402p   90.7228p 
   50.00000m  277.3142p  463.9828p 
  100.00000m    1.4028n    2.3204n 
  150.00000m    6.7451n   10.9562n 
  200.00000m   29.7683n   47.0595n 
  250.00000m  117.0866n  179.3316n 
  300.00000m  403.6614n  597.5176n 
  350.00000m    1.1676u    1.6756u 
  400.00000m    2.6511u    3.8305u 
  450.00000m    4.7143u    7.2560u 
  500.00000m    7.0422u   11.8997u 
  550.00000m    9.4334u   17.6151u 
  600.00000m   11.7951u   24.2610u 
  650.00000m   14.0886u   31.7221u 
  700.00000m   16.2977u   39.9030u 
  750.00000m   18.4153u   48.7202u 
  800.00000m   20.4382u   58.0974u 
  850.00000m   22.3651u   67.9633u 
  900.00000m   24.1957u   78.2511u 
  950.00000m   25.9307u   88.8979u 
    1.00000    27.5713u   99.8442u 
y
 vth0_value= 253.7192m
 u0_param=  50.8716m
 vsat_param=  94.4166k
 
   *** monte carlo  index = 3 ***
x

 volt         param      param     
             i_linear   i_sat      
    0.         42.2882p   72.0095p 
   50.00000m  219.8535p  368.1600p 
  100.00000m    1.1171n    1.8500n 
  150.00000m    5.4159n    8.8175n 
  200.00000m   24.2133n   38.4053n 
  250.00000m   96.7435n  148.7159n 
  300.00000m  339.6897n  504.9005n 
  350.00000m    1.0089u    1.4514u 
  400.00000m    2.3681u    3.4063u 
  450.00000m    4.3300u    6.5950u 
  500.00000m    6.5850u   10.9896u 
  550.00000m    8.9192u   16.4513u 
  600.00000m   11.2316u   22.8394u 
  650.00000m   13.4801u   30.0380u 
  700.00000m   15.6471u   37.9520u 
  750.00000m   17.7249u   46.4986u 
  800.00000m   19.7102u   55.6023u 
  850.00000m   21.6016u   65.1929u 
  900.00000m   23.3989u   75.2045u 
  950.00000m   25.1025u   85.5751u 
    1.00000    26.7137u   96.2460u 
y
 vth0_value= 260.1032m
 u0_param=  49.9038m
 vsat_param=  94.7241k
 
   *** monte carlo  index = 4 ***
x

 volt         param      param     
             i_linear   i_sat      
    0.         62.2214p  105.3173p 
   50.00000m  322.2672p  538.1300p 
  100.00000m    1.6235n    2.6789n 
  150.00000m    7.7474n   12.5407n 
  200.00000m   33.8024n   53.2120n 
  250.00000m  131.1745n  200.0349n 
  300.00000m  445.0697n  655.8088n 
  350.00000m    1.2579u    1.8008u 
  400.00000m    2.7769u    4.0286u 
  450.00000m    4.8275u    7.4993u 
  500.00000m    7.1086u   12.1461u 
  550.00000m    9.4385u   17.8255u 
  600.00000m   11.7349u   24.4032u 
  650.00000m   13.9633u   31.7702u 
  700.00000m   16.1092u   39.8353u 
  750.00000m   18.1662u   48.5182u 
  800.00000m   20.1313u   57.7448u 
  850.00000m   22.0031u   67.4460u 
  900.00000m   23.7815u   77.5567u 
  950.00000m   25.4669u   88.0154u 
    1.00000    27.0607u   98.7644u 
y
 vth0_value= 248.2501m
 u0_param=  49.3761m
 vsat_param=  94.5536k
 
   *** monte carlo  index = 5 ***
x

 volt         param      param     
             i_linear   i_sat      
    0.         41.3805p   70.4964p 
   50.00000m  215.1442p  360.3481p 
  100.00000m    1.0933n    1.8110n 
  150.00000m    5.3025n    8.6348n 
  200.00000m   23.7184n   37.6302n 
  250.00000m   94.8256n  145.8068n 
  300.00000m  333.1942n  495.3807n 
  350.00000m  990.5913n    1.4254u 
  400.00000m    2.3283u    3.3487u 
  450.00000m    4.2623u    6.4892u 
  500.00000m    6.4872u   10.8202u 
  550.00000m    8.7911u   16.2050u 
  600.00000m   11.0740u   22.5045u 
  650.00000m   13.2941u   29.6043u 
  700.00000m   15.4339u   37.4106u 
  750.00000m   17.4859u   45.8416u 
  800.00000m   19.4466u   54.8228u 
  850.00000m   21.3148u   64.2851u 
  900.00000m   23.0900u   74.1633u 
  950.00000m   24.7730u   84.3964u 
    1.00000    26.3647u   94.9265u 
y
 vth0_value= 260.3625m
 u0_param=  49.2940m
 vsat_param=  92.8499k
 
   *** monte carlo  index = 6 ***
x

 volt         param      param     
             i_linear   i_sat      
    0.        113.2845p  190.6834p 
   50.00000m  582.5121p  969.6011p 
  100.00000m    2.8906n    4.7454n 
  150.00000m   13.4290n   21.5577n 
  200.00000m   56.3900n   87.8575n 
  250.00000m  209.4615n  315.9096n 
  300.00000m  672.5308n  979.5446n 
  350.00000m    1.7551u    2.5079u 
  400.00000m    3.5479u    5.2436u 
  450.00000m    5.7770u    9.2569u 
  500.00000m    8.1663u   14.4361u 
  550.00000m   10.5704u   20.6317u 
  600.00000m   12.9261u   27.7148u 
  650.00000m   15.2066u   35.5801u 
  700.00000m   17.4005u   44.1384u 
  750.00000m   19.5023u   53.3092u 
  800.00000m   21.5094u   63.0179u 
  850.00000m   23.4207u   73.1946u 
  900.00000m   25.2359u   83.7732u 
  950.00000m   26.9557u   94.6914u 
    1.00000    28.5814u  105.8905u 
y
 vth0_value= 231.0040m
 u0_param=  50.4523m
 vsat_param=  94.2131k
 
   *** monte carlo  index = 7 ***
x

 volt         param      param     
             i_linear   i_sat      
    0.        142.1801p  238.7290p 
   50.00000m  728.4404p    1.2098n 
  100.00000m    3.5887n    5.8724n 
  150.00000m   16.4689n   26.3178n 
  200.00000m   68.0267n  105.4488n 
  250.00000m  248.0830n  372.1578n 
  300.00000m  777.1822n    1.1263u 
  350.00000m    1.9594u    2.8018u 
  400.00000m    3.8261u    5.7071u 
  450.00000m    6.0822u    9.8785u 
  500.00000m    8.4712u   15.1940u 
  550.00000m   10.8635u   21.5068u 
  600.00000m   13.2033u   28.6930u 
  650.00000m   15.4669u   36.6509u 
  700.00000m   17.6439u   45.2930u 
  750.00000m   19.7292u   54.5402u 
  800.00000m   21.7204u   64.3188u 
  850.00000m   23.6163u   74.5591u 
  900.00000m   25.4168u   85.1957u 
  950.00000m   27.1226u   96.1664u 
    1.00000    28.7347u  107.4127u 
y
 vth0_value= 223.9248m
 u0_param=  50.0209m
 vsat_param=  95.6219k
 
   *** monte carlo  index = 8 ***
x

 volt         param      param     
             i_linear   i_sat      
    0.        110.5544p  186.0597p 
   50.00000m  568.7364p  946.5013p 
  100.00000m    2.8248n    4.6373n 
  150.00000m   13.1445n   21.1038n 
  200.00000m   55.3166n   86.2065n 
  250.00000m  205.9884n  310.7746n 
  300.00000m  663.5778n  966.8700n 
  350.00000m    1.7399u    2.4856u 
  400.00000m    3.5340u    5.2168u 
  450.00000m    5.7735u    9.2369u 
  500.00000m    8.1781u   14.4358u 
  550.00000m   10.5992u   20.6632u 
  600.00000m   12.9719u   27.7887u 
  650.00000m   15.2691u   35.7064u 
  700.00000m   17.4789u   44.3258u 
  750.00000m   19.5959u   53.5659u 
  800.00000m   21.6175u   63.3514u 
  850.00000m   23.5424u   73.6116u 
  900.00000m   25.3705u   84.2797u 
  950.00000m   27.1025u   95.2928u 
    1.00000    28.7395u  106.5914u 
y
 vth0_value= 231.9527m
 u0_param=  50.8005m
 vsat_param=  96.6691k
 
   *** monte carlo  index = 9 ***
x

 volt         param      param     
             i_linear   i_sat      
    0.         37.9132p   64.6640p 
   50.00000m  197.2454p  330.4157p 
  100.00000m    1.0040n    1.6634n 
  150.00000m    4.8845n    7.9594n 
  200.00000m   21.9576n   34.8747n 
  250.00000m   88.3297n  135.9881n 
  300.00000m  312.5846n  465.4185n 
  350.00000m  938.8216n    1.3522u 
